time_s,vin_v,vout_v
0.0000,0.000,0.000
0.0001,0.588,-2.764
0.0002,0.951,-4.470
0.0003,0.951,-4.470
0.0004,0.588,-2.764
0.0005,0.000,0.000
0.0006,-0.588,2.764
0.0007,-0.951,4.470
0.0008,-0.951,4.470
0.0009,-0.588,2.764
0.0010,0.000,0.000
0.0011,0.588,-2.764
0.0012,0.951,-4.470
0.0013,0.951,-4.470
0.0014,0.588,-2.764
0.0015,0.000,0.000
0.0016,-0.588,2.764
0.0017,-0.951,4.470
0.0018,-0.951,4.470
0.0019,-0.588,2.764
0.0020,0.000,0.000

