time_s,vin_v,vout_v
0.0000,0.000,11.72
0.0001,0.588,11.79
0.0002,0.951,11.85
0.0003,0.951,11.91
0.0004,0.588,11.86
0.0005,0.000,11.80
0.0006,-0.588,11.73
0.0007,-0.951,11.68
0.0008,-0.951,11.65
0.0009,-0.588,11.70
0.0010,0.000,11.77
0.0011,0.588,11.83
0.0012,0.951,11.89
0.0013,0.951,11.94
0.0014,0.588,11.86
0.0015,0.000,11.78
0.0016,-0.588,11.71
0.0017,-0.951,11.66
0.0018,-0.951,11.63
0.0019,-0.588,11.69
0.0020,0.000,11.76

